time	V(y)	V(z)
0.000000000000000e+00	1.800000e+00	4.998462e-09
4.000000000000000e-20	1.692122e+00	5.450751e-09
7.657142857142861e-19	1.692233e+00	5.450264e-09
1.491428571428572e-18	1.692316e+00	5.449902e-09
2.217142857142858e-18	1.692370e+00	5.449665e-09
2.942857142857145e-18	1.692395e+00	5.449554e-09
3.668571428571431e-18	1.692392e+00	5.449568e-09
4.394285714285716e-18	1.692360e+00	5.449707e-09
5.120000000000000e-18	1.692300e+00	5.449972e-09
5.553520640000001e-12	1.692300e+00	5.449972e-09
5.556142080000000e-12	1.685230e+00	5.482289e-09
5.558108160000000e-12	1.643808e+00	5.681020e-09
5.560729600000000e-12	1.609292e+00	5.857644e-09
5.565972480000000e-12	1.574145e+00	6.049402e-09
5.576458240000000e-12	1.538215e+00	6.258747e-09
5.597429760000000e-12	1.502215e+00	6.483534e-09
5.639372800000000e-12	1.466306e+00	6.724457e-09
5.723258880000000e-12	1.430438e+00	6.983679e-09
5.891031040000000e-12	1.394575e+00	7.263639e-09
6.226575360000000e-12	1.358713e+00	7.566978e-09
6.897664000000001e-12	1.322822e+00	-8.498494e-09
8.239841280000002e-12	1.287400e+00	1.007421e-04
1.092419584000000e-11	1.251302e+00	1.579855e-03
1.629290496000000e-11	1.210816e+00	5.617008e-03
2.000000000000000e-11	1.189433e+00	8.921214e-03
2.741419007999999e-11	1.176191e+00	1.143125e-02
4.224257023999999e-11	1.152686e+00	1.684146e-02
6.224257024000000e-11	1.122305e+00	2.590903e-02
8.224257024000001e-11	1.092305e+00	3.760426e-02
1.022425702400000e-10	1.062739e+00	5.245508e-02
1.222425702400000e-10	1.033565e+00	7.127023e-02
1.422425702400000e-10	1.004879e+00	9.521130e-02
1.622425702400000e-10	9.767645e-01	1.262425e-01
1.822425702400000e-10	9.493240e-01	1.683997e-01
2.022425702400001e-10	9.226686e-01	2.322198e-01
2.047425702400000e-10	9.194024e-01	2.431855e-01
2.097425702400001e-10	9.129039e-01	2.691601e-01
2.197425702400000e-10	9.000900e-01	3.879149e-01
2.197913983650001e-10	9.000280e-01	3.933269e-01
2.198127606696875e-10	9.000009e-01	3.987198e-01
2.198134675807746e-10	9.000000e-01	3.999920e-01
2.198134699649604e-10	9.000000e-01	9.595646e-01
2.198134747333320e-10	9.000000e-01	1.402652e+00
2.199027644496438e-10	8.998867e-01	1.411380e+00
2.199920541659557e-10	8.997734e-01	1.418743e+00
2.200813438822675e-10	8.996602e-01	1.424741e+00
2.201706335985794e-10	8.995470e-01	1.429374e+00
2.202599233148913e-10	8.994338e-01	1.432642e+00
2.203492130312031e-10	8.993206e-01	1.434544e+00
2.204385027475150e-10	8.992075e-01	1.435082e+00
2.223135027475150e-10	8.968362e-01	1.468518e+00
2.248135027475150e-10	8.936886e-01	1.494936e+00
2.298135027475150e-10	8.874432e-01	1.530268e+00
2.398135027475150e-10	8.751577e-01	1.576093e+00
2.598135027475150e-10	8.514484e-01	1.630174e+00
2.798135027475150e-10	8.287996e-01	1.666827e+00
2.998135027475149e-10	8.070812e-01	1.692833e+00
3.198135027475149e-10	7.861577e-01	1.712997e+00
3.398135027475149e-10	7.658330e-01	1.729177e+00
3.598135027475149e-10	7.459446e-01	1.742432e+00
3.798135027475149e-10	7.263706e-01	1.753451e+00
3.998135027475149e-10	7.070286e-01	1.762689e+00
4.198135027475148e-10	6.878698e-01	1.770460e+00
4.398135027475148e-10	6.688701e-01	1.776990e+00
4.598135027475148e-10	6.500204e-01	1.782451e+00
4.798135027475148e-10	6.313213e-01	1.786979e+00
4.998135027475149e-10	6.127793e-01	1.790684e+00
5.198135027475149e-10	5.944059e-01	1.793656e+00
5.398135027475149e-10	5.762161e-01	1.795976e+00
5.598135027475150e-10	5.582283e-01	1.797711e+00
5.798135027475150e-10	5.404636e-01	1.798922e+00
5.998135027475150e-10	5.229447e-01	1.799662e+00
6.198135027475151e-10	5.056953e-01	1.799980e+00
6.398135027475151e-10	4.887395e-01	1.800000e+00
6.798135027475152e-10	4.557973e-01	1.800000e+00
7.198135027475152e-10	4.242780e-01	1.800000e+00
7.598135027475153e-10	3.943025e-01	1.800000e+00
7.998135027475154e-10	3.659481e-01	1.800000e+00
8.398135027475155e-10	3.392507e-01	1.800000e+00
8.798135027475155e-10	3.142115e-01	1.800000e+00
9.198135027475156e-10	2.908043e-01	1.800000e+00
9.798135027475154e-10	2.586487e-01	1.800000e+00
1.039813502747515e-09	2.298484e-01	1.800000e+00
1.099813502747515e-09	2.041568e-01	1.800000e+00
1.159813502747515e-09	1.813125e-01	1.800000e+00
1.219813502747515e-09	1.610540e-01	1.800000e+00
1.279813502747514e-09	1.431275e-01	1.800000e+00
1.339813502747514e-09	1.272926e-01	1.800000e+00
1.399813502747514e-09	1.133250e-01	1.800000e+00
1.459813502747514e-09	1.010175e-01	1.800000e+00
1.519813502747514e-09	9.018123e-02	1.800000e+00
1.579813502747513e-09	8.064477e-02	1.800000e+00
1.639813502747513e-09	7.225391e-02	1.800000e+00
1.699813502747513e-09	6.487060e-02	1.800000e+00
1.759813502747513e-09	5.837186e-02	1.800000e+00
1.819813502747512e-09	5.264863e-02	1.800000e+00
1.879813502747512e-09	4.760453e-02	1.800000e+00
1.939813502747512e-09	4.315463e-02	1.800000e+00
1.999813502747512e-09	3.922437e-02	1.800000e+00
2.059813502747512e-09	3.574837e-02	1.800000e+00
2.119813502747512e-09	3.266947e-02	1.800000e+00
2.179813502747511e-09	2.993774e-02	1.800000e+00
2.239813502747511e-09	2.750968e-02	1.800000e+00
2.299813502747511e-09	2.534737e-02	1.800000e+00
2.359813502747511e-09	2.341784e-02	1.800000e+00
2.419813502747511e-09	2.169238e-02	1.800000e+00
2.471242074176082e-09	2.038251e-02	1.800000e+00
2.522670645604653e-09	1.916361e-02	1.800000e+00
2.574099217033224e-09	1.803566e-02	1.800000e+00
2.625527788461796e-09	1.699867e-02	1.800000e+00
2.676956359890367e-09	1.605263e-02	1.800000e+00
2.728384931318938e-09	1.519755e-02	1.800000e+00
2.779813502747509e-09	1.443343e-02	1.800000e+00
2.842670645604652e-09	1.357430e-02	1.800000e+00
2.905527788461795e-09	1.277684e-02	1.800000e+00
2.968384931318937e-09	1.204105e-02	1.800000e+00
3.031242074176080e-09	1.136693e-02	1.800000e+00
3.094099217033223e-09	1.075448e-02	1.800000e+00
3.156956359890365e-09	1.020370e-02	1.800000e+00
3.219813502747508e-09	9.714597e-03	1.800000e+00
3.305527788461794e-09	9.106253e-03	1.800000e+00
3.391242074176079e-09	8.544946e-03	1.800000e+00
3.476956359890365e-09	8.030675e-03	1.800000e+00
3.562670645604650e-09	7.563440e-03	1.800000e+00
3.648384931318936e-09	7.143242e-03	1.800000e+00
3.734099217033222e-09	6.770080e-03	1.800000e+00
3.819813502747507e-09	6.443955e-03	1.800000e+00
3.936956359890366e-09	6.037514e-03	1.800000e+00
4.054099217033226e-09	5.663544e-03	1.800000e+00
4.171242074176085e-09	5.322042e-03	1.800000e+00
4.288384931318944e-09	5.013010e-03	1.800000e+00
4.405527788461803e-09	4.736448e-03	1.800000e+00
4.522670645604663e-09	4.492354e-03	1.800000e+00
4.639813502747522e-09	4.280731e-03	1.800000e+00
4.694099217033237e-09	4.184822e-03	1.800000e+00
4.748384931318952e-09	4.092332e-03	1.800000e+00
4.802670645604668e-09	4.003260e-03	1.800000e+00
4.856956359890383e-09	3.917608e-03	1.800000e+00
4.911242074176097e-09	3.835374e-03	1.800000e+00
4.965527788461813e-09	3.756559e-03	1.800000e+00
5.019813502747528e-09	3.681163e-03	1.800000e+00
5.039813502747528e-09	5.790595e-03	1.800000e+00
5.059813502747529e-09	6.559382e-03	1.800000e+00
5.079813502747529e-09	7.282500e-03	1.800000e+00
5.099813502747529e-09	7.966506e-03	1.800000e+00
5.119813502747530e-09	8.621699e-03	1.800000e+00
5.139813502747530e-09	9.253197e-03	1.800000e+00
5.179813502747531e-09	1.045725e-02	1.800000e+00
5.239813502747532e-09	1.214132e-02	1.800000e+00
5.294099217033247e-09	1.353913e-02	1.800000e+00
5.348384931318963e-09	1.487051e-02	1.800000e+00
5.402670645604678e-09	1.613545e-02	1.800000e+00
5.456956359890393e-09	1.733395e-02	1.800000e+00
5.511242074176108e-09	1.846601e-02	1.800000e+00
5.565527788461823e-09	1.953163e-02	1.800000e+00
5.619813502747538e-09	2.053081e-02	1.800000e+00
5.705527788461826e-09	2.201920e-02	1.800000e+00
5.791242074176113e-09	2.343275e-02	1.800000e+00
5.876956359890400e-09	2.477147e-02	1.800000e+00
5.962670645604688e-09	2.603535e-02	1.800000e+00
6.048384931318975e-09	2.722440e-02	1.800000e+00
6.134099217033262e-09	2.833861e-02	1.800000e+00
6.219813502747549e-09	2.937800e-02	1.800000e+00
6.365527788461837e-09	3.103370e-02	1.800000e+00
6.511242074176125e-09	3.259887e-02	1.800000e+00
6.656956359890414e-09	3.407350e-02	1.800000e+00
6.802670645604702e-09	3.545759e-02	1.800000e+00
6.948384931318990e-09	3.675114e-02	1.800000e+00
7.094099217033278e-09	3.795416e-02	1.800000e+00
7.239813502747566e-09	3.906663e-02	1.800000e+00
7.496956359890419e-09	4.089548e-02	1.800000e+00
7.754099217033271e-09	4.261659e-02	1.800000e+00
8.011242074176124e-09	4.422996e-02	1.800000e+00
8.268384931318976e-09	4.573558e-02	1.800000e+00
8.525527788461828e-09	4.713346e-02	1.800000e+00
8.782670645604680e-09	4.842360e-02	1.800000e+00
9.039813502747532e-09	4.960599e-02	1.800000e+00
9.539813502747520e-09	5.172460e-02	1.800000e+00
1.003981350274751e-08	5.370490e-02	1.800000e+00
1.053981350274750e-08	5.554687e-02	1.800000e+00
1.103981350274748e-08	5.725053e-02	1.800000e+00
1.153981350274747e-08	5.881586e-02	1.800000e+00
1.203981350274746e-08	6.024287e-02	1.800000e+00
1.253981350274745e-08	6.153156e-02	1.800000e+00
1.340552778846171e-08	6.360425e-02	1.800000e+00
1.427124207417598e-08	6.554334e-02	1.800000e+00
1.513695635989024e-08	6.734884e-02	1.800000e+00
1.600267064560451e-08	6.902073e-02	1.800000e+00
1.686838493131877e-08	7.055902e-02	1.800000e+00
1.773409921703304e-08	7.196371e-02	1.800000e+00
1.859981350274730e-08	7.323480e-02	1.800000e+00
2.000000000000000e-08	7.520518e-02	1.800000e+00
