time	V(y)	V(z)
0.000000000000000e+00	1.800000e+00	4.998462e-09
4.000000000000000e-20	1.692122e+00	5.450751e-09
7.657142857142861e-19	1.692233e+00	5.450264e-09
1.491428571428572e-18	1.692316e+00	5.449902e-09
2.217142857142858e-18	1.692370e+00	5.449665e-09
2.942857142857145e-18	1.692395e+00	5.449554e-09
3.668571428571431e-18	1.692392e+00	5.449568e-09
4.394285714285716e-18	1.692360e+00	5.449707e-09
5.120000000000000e-18	1.692300e+00	5.449972e-09
5.553520640000001e-12	1.692300e+00	5.449972e-09
5.556142080000000e-12	1.685230e+00	5.482289e-09
5.558108160000000e-12	1.643808e+00	5.681020e-09
5.560729600000000e-12	1.609292e+00	5.857644e-09
5.565972480000000e-12	1.574145e+00	6.049402e-09
5.576458240000000e-12	1.538215e+00	6.258747e-09
5.597429760000000e-12	1.502215e+00	6.483534e-09
5.639372800000000e-12	1.466306e+00	6.724457e-09
5.723258880000000e-12	1.430438e+00	6.983679e-09
5.891031040000000e-12	1.394575e+00	7.263639e-09
6.226575360000000e-12	1.358713e+00	7.566978e-09
6.897664000000001e-12	1.322833e+00	-8.350374e-09
8.239841280000002e-12	1.287331e+00	1.018696e-04
1.092419584000000e-11	1.251044e+00	1.597205e-03
1.629290496000000e-11	1.210629e+00	5.642145e-03
2.000000000000000e-11	1.189292e+00	8.946067e-03
2.741419007999999e-11	1.175998e+00	1.147048e-02
4.224257023999999e-11	1.152370e+00	1.692318e-02
6.224257024000000e-11	1.121793e+00	2.608423e-02
8.224257024000001e-11	1.091551e+00	3.793835e-02
1.022425702400000e-10	1.061691e+00	5.305169e-02
1.222425702400000e-10	1.032140e+00	7.231534e-02
1.422425702400000e-10	1.002969e+00	9.704299e-02
1.622425702400000e-10	9.742205e-01	1.295370e-01
1.822425702400000e-10	9.459401e-01	1.748234e-01
2.022425702400001e-10	9.181743e-01	2.476390e-01
2.047425702400000e-10	9.147455e-01	2.610857e-01
2.097425702400001e-10	9.079081e-01	2.951929e-01
2.109925702400001e-10	9.062054e-01	3.065237e-01
2.134925702400000e-10	9.028051e-01	3.355136e-01
2.184925702400001e-10	8.960330e-01	1.476769e+00
2.284925702400000e-10	8.826060e-01	1.549501e+00
2.484925702400001e-10	8.562534e-01	1.620942e+00
2.684925702400000e-10	8.306277e-01	1.664974e+00
2.884925702400000e-10	8.058164e-01	1.694319e+00
3.084925702400000e-10	7.819026e-01	1.716665e+00
3.284925702400000e-10	7.588940e-01	1.734082e+00
3.484925702400000e-10	7.367514e-01	1.747846e+00
3.684925702399999e-10	7.154074e-01	1.758878e+00
3.884925702399999e-10	6.947694e-01	1.767811e+00
4.084925702399999e-10	6.747355e-01	1.775092e+00
4.284925702399999e-10	6.552072e-01	1.781044e+00
4.484925702399999e-10	6.360979e-01	1.785902e+00
4.684925702399999e-10	6.173372e-01	1.789842e+00
4.884925702399999e-10	5.988724e-01	1.792994e+00
5.084925702400000e-10	5.806682e-01	1.795463e+00
5.284925702400000e-10	5.627056e-01	1.797329e+00
5.484925702400001e-10	5.449791e-01	1.798659e+00
5.684925702400001e-10	5.274938e-01	1.799511e+00
5.884925702400001e-10	5.102628e-01	1.799934e+00
6.084925702400002e-10	4.933043e-01	1.800000e+00
6.484925702400002e-10	4.602885e-01	1.800000e+00
6.884925702400003e-10	4.286156e-01	1.800000e+00
7.084925702400003e-10	4.133295e-01	1.800000e+00
7.284925702400004e-10	3.984304e-01	1.800000e+00
7.484925702400004e-10	3.839296e-01	1.800000e+00
7.884925702400005e-10	3.561534e-01	1.800000e+00
8.284925702400005e-10	3.300361e-01	1.800000e+00
8.684925702400006e-10	3.055755e-01	1.800000e+00
9.084925702400007e-10	2.827412e-01	1.800000e+00
9.484925702400006e-10	2.614826e-01	1.800000e+00
1.008492570240000e-09	2.324065e-01	1.800000e+00
1.068492570240000e-09	2.064812e-01	1.800000e+00
1.128492570240000e-09	1.834412e-01	1.800000e+00
1.188492570240000e-09	1.630197e-01	1.800000e+00
1.248492570240000e-09	1.449579e-01	1.800000e+00
1.308492570239999e-09	1.290108e-01	1.800000e+00
1.368492570239999e-09	1.149498e-01	1.800000e+00
1.428492570239999e-09	1.025642e-01	1.800000e+00
1.488492570239999e-09	9.166203e-02	1.800000e+00
1.548492570239999e-09	8.206929e-02	1.800000e+00
1.608492570239998e-09	7.362959e-02	1.800000e+00
1.668492570239998e-09	6.620314e-02	1.800000e+00
1.728492570239998e-09	5.966553e-02	1.800000e+00
1.788492570239998e-09	5.390656e-02	1.800000e+00
1.848492570239998e-09	4.882896e-02	1.800000e+00
1.908492570239997e-09	4.434716e-02	1.800000e+00
1.968492570239997e-09	4.038608e-02	1.800000e+00
2.028492570239997e-09	3.688001e-02	1.800000e+00
2.088492570239997e-09	3.377154e-02	1.800000e+00
2.148492570239996e-09	3.101063e-02	1.800000e+00
2.208492570239996e-09	2.855368e-02	1.800000e+00
2.268492570239996e-09	2.636276e-02	1.800000e+00
2.328492570239996e-09	2.440490e-02	1.800000e+00
2.377063998811424e-09	2.299615e-02	1.800000e+00
2.425635427382853e-09	2.168159e-02	1.800000e+00
2.474206855954281e-09	2.046121e-02	1.800000e+00
2.522778284525709e-09	1.933503e-02	1.800000e+00
2.571349713097138e-09	1.830305e-02	1.800000e+00
2.619921141668566e-09	1.736525e-02	1.800000e+00
2.668492570239995e-09	1.652164e-02	1.800000e+00
2.728492570239994e-09	1.556146e-02	1.800000e+00
2.788492570239994e-09	1.466861e-02	1.800000e+00
2.848492570239994e-09	1.384310e-02	1.800000e+00
2.908492570239994e-09	1.308492e-02	1.800000e+00
2.968492570239994e-09	1.239409e-02	1.800000e+00
3.028492570239993e-09	1.177060e-02	1.800000e+00
3.088492570239993e-09	1.121444e-02	1.800000e+00
3.168492570239993e-09	1.053571e-02	1.800000e+00
3.248492570239993e-09	9.907841e-03	1.800000e+00
3.328492570239992e-09	9.330834e-03	1.800000e+00
3.408492570239992e-09	8.804690e-03	1.800000e+00
3.488492570239992e-09	8.329408e-03	1.800000e+00
3.568492570239992e-09	7.904987e-03	1.800000e+00
3.648492570239991e-09	7.531428e-03	1.800000e+00
3.759921141668565e-09	7.057433e-03	1.800000e+00
3.871349713097138e-09	6.621022e-03	1.800000e+00
3.982778284525711e-09	6.222196e-03	1.800000e+00
4.094206855954284e-09	5.860954e-03	1.800000e+00
4.205635427382857e-09	5.537297e-03	1.800000e+00
4.317063998811430e-09	5.251224e-03	1.800000e+00
4.428492570240004e-09	5.002736e-03	1.800000e+00
4.512993631634288e-09	4.822307e-03	1.800000e+00
4.597494693028574e-09	4.651407e-03	1.800000e+00
4.681995754422859e-09	4.490036e-03	1.800000e+00
4.766496815817145e-09	4.338194e-03	1.800000e+00
4.850997877211430e-09	4.195880e-03	1.800000e+00
4.935498938605716e-09	4.063095e-03	1.800000e+00
5.020000000000000e-09	3.939838e-03	1.800000e+00
5.040000000000001e-09	7.891014e-03	1.800000e+00
5.060000000000001e-09	8.906676e-03	1.800000e+00
5.100000000000002e-09	1.081593e-02	1.800000e+00
5.140000000000003e-09	1.258897e-02	1.800000e+00
5.200000000000004e-09	1.503016e-02	1.800000e+00
5.260000000000005e-09	1.724952e-02	1.800000e+00
5.320000000000006e-09	1.928268e-02	1.800000e+00
5.368571428571435e-09	2.079156e-02	1.800000e+00
5.417142857142864e-09	2.222991e-02	1.800000e+00
5.465714285714294e-09	2.359771e-02	1.800000e+00
5.514285714285723e-09	2.489498e-02	1.800000e+00
5.562857142857153e-09	2.612171e-02	1.800000e+00
5.611428571428582e-09	2.727790e-02	1.800000e+00
5.660000000000011e-09	2.836355e-02	1.800000e+00
5.737142857142870e-09	2.999005e-02	1.800000e+00
5.814285714285729e-09	3.153498e-02	1.800000e+00
5.891428571428587e-09	3.299834e-02	1.800000e+00
5.968571428571446e-09	3.438013e-02	1.800000e+00
6.045714285714304e-09	3.568035e-02	1.800000e+00
6.122857142857163e-09	3.689900e-02	1.800000e+00
6.200000000000021e-09	3.803608e-02	1.800000e+00
6.325714285714309e-09	3.977703e-02	1.800000e+00
6.451428571428596e-09	4.142534e-02	1.800000e+00
6.577142857142885e-09	4.298099e-02	1.800000e+00
6.702857142857173e-09	4.444399e-02	1.800000e+00
6.828571428571460e-09	4.581434e-02	1.800000e+00
6.954285714285748e-09	4.709204e-02	1.800000e+00
7.080000000000036e-09	4.827709e-02	1.800000e+00
7.297142857142890e-09	5.018863e-02	1.800000e+00
7.514285714285744e-09	5.199073e-02	1.800000e+00
7.731428571428598e-09	5.368340e-02	1.800000e+00
7.948571428571452e-09	5.526663e-02	1.800000e+00
8.165714285714306e-09	5.674043e-02	1.800000e+00
8.382857142857161e-09	5.810478e-02	1.800000e+00
8.600000000000014e-09	5.935971e-02	1.800000e+00
9.002857142857148e-09	6.151609e-02	1.800000e+00
9.405714285714281e-09	6.353776e-02	1.800000e+00
9.808571428571413e-09	6.542470e-02	1.800000e+00
1.021142857142855e-08	6.717692e-02	1.800000e+00
1.061428571428568e-08	6.879442e-02	1.800000e+00
1.101714285714281e-08	7.027719e-02	1.800000e+00
1.141999999999995e-08	7.162525e-02	1.800000e+00
1.225142857142850e-08	7.416863e-02	1.800000e+00
1.308285714285705e-08	7.653434e-02	1.800000e+00
1.391428571428560e-08	7.872237e-02	1.800000e+00
1.474571428571415e-08	8.073271e-02	1.800000e+00
1.557714285714270e-08	8.256538e-02	1.800000e+00
1.640857142857126e-08	8.422036e-02	1.800000e+00
1.723999999999981e-08	8.569767e-02	1.800000e+00
1.935999999999975e-08	8.921926e-02	1.800000e+00
2.000000000000000e-08	9.018243e-02	1.800000e+00
