time	V(y)	V(z)
0.000000000000000e+00	1.800000e+00	3.998704e-09
4.000000000000000e-20	1.692122e+00	4.360601e-09
7.657142857142861e-19	1.692233e+00	4.360211e-09
1.491428571428572e-18	1.692316e+00	4.359921e-09
2.217142857142858e-18	1.692370e+00	4.359732e-09
2.942857142857145e-18	1.692395e+00	4.359643e-09
3.668571428571431e-18	1.692392e+00	4.359654e-09
4.394285714285716e-18	1.692360e+00	4.359766e-09
5.120000000000000e-18	1.692300e+00	4.359978e-09
5.553520640000001e-12	1.692300e+00	4.359978e-09
5.556142080000000e-12	1.683462e+00	4.392295e-09
5.558108160000000e-12	1.638566e+00	4.565717e-09
5.560729600000000e-12	1.603268e+00	4.711638e-09
5.565972480000000e-12	1.568317e+00	4.865905e-09
5.576458240000000e-12	1.532465e+00	5.034885e-09
5.597429760000000e-12	1.496455e+00	5.216814e-09
5.639372800000000e-12	1.460534e+00	5.411890e-09
5.723258880000000e-12	1.424665e+00	5.621823e-09
5.891031040000000e-12	1.388803e+00	5.848646e-09
6.226575360000000e-12	1.352941e+00	6.094545e-09
6.897664000000001e-12	1.317045e+00	-8.611996e-09
8.239841280000002e-12	1.281762e+00	1.701487e-04
1.092419584000000e-11	1.245508e+00	1.594887e-03
1.629290496000000e-11	1.204036e+00	5.251676e-03
2.000000000000000e-11	1.181462e+00	8.296169e-03
2.741419007999999e-11	1.165514e+00	1.096090e-02
4.224257023999999e-11	1.136646e+00	1.699177e-02
6.224257024000000e-11	1.098936e+00	2.763654e-02
8.224257024000001e-11	1.061745e+00	4.198039e-02
1.022425702400000e-10	1.025177e+00	6.105923e-02
1.222425702400000e-10	9.892204e-01	8.659957e-02
1.422425702400000e-10	9.539676e-01	1.217404e-01
1.622425702400000e-10	9.194883e-01	1.742550e-01
1.822425702400000e-10	8.858500e-01	2.775759e-01
1.847425702400000e-10	8.817126e-01	3.059850e-01
1.853675702400001e-10	8.806795e-01	3.154213e-01
1.866175702400000e-10	8.786156e-01	3.425812e-01
1.869300702400000e-10	8.781002e-01	3.544264e-01
1.870081952400001e-10	8.779714e-01	3.585488e-01
1.871662762946875e-10	8.777108e-01	3.760033e-01
1.871675160712989e-10	8.777087e-01	3.776692e-01
1.871675172633918e-10	8.777087e-01	1.380244e+00
1.872568056173118e-10	8.775616e-01	1.391185e+00
1.873460939712317e-10	8.774144e-01	1.400368e+00
1.874353823251517e-10	8.772673e-01	1.407794e+00
1.875246706790717e-10	8.771202e-01	1.413461e+00
1.876139590329917e-10	8.769731e-01	1.417371e+00
1.877032473869116e-10	8.768260e-01	1.419523e+00
1.877925357408316e-10	8.766789e-01	1.419917e+00
1.896675357408316e-10	8.735950e-01	1.459997e+00
1.921675357408316e-10	8.694960e-01	1.491547e+00
1.971675357408316e-10	8.613430e-01	1.533552e+00
2.071675357408316e-10	8.452214e-01	1.585752e+00
2.271675357408316e-10	8.137553e-01	1.650483e+00
2.471675357408316e-10	7.834018e-01	1.692136e+00
2.671675357408316e-10	7.542840e-01	1.720328e+00
2.871675357408316e-10	7.265440e-01	1.741109e+00
3.071675357408316e-10	7.002886e-01	1.756665e+00
3.271675357408315e-10	6.756111e-01	1.768353e+00
3.471675357408315e-10	6.526043e-01	1.777130e+00
3.671675357408315e-10	6.313469e-01	1.783688e+00
3.871675357408315e-10	6.118475e-01	1.788552e+00
4.071675357408315e-10	5.940319e-01	1.792135e+00
4.271675357408315e-10	5.777543e-01	1.794754e+00
4.471675357408314e-10	5.628187e-01	1.796650e+00
4.671675357408315e-10	5.489998e-01	1.798001e+00
4.871675357408315e-10	5.360623e-01	1.798936e+00
5.071675357408315e-10	5.237805e-01	1.799545e+00
5.271675357408316e-10	5.119581e-01	1.799887e+00
5.471675357408316e-10	5.004378e-01	1.800000e+00
5.671675357408316e-10	4.891081e-01	1.800000e+00
5.871675357408317e-10	4.778969e-01	1.800000e+00
6.071675357408317e-10	4.667618e-01	1.800000e+00
6.271675357408317e-10	4.556834e-01	1.800000e+00
6.471675357408318e-10	4.446571e-01	1.800000e+00
6.671675357408318e-10	4.336874e-01	1.800000e+00
6.871675357408318e-10	4.227840e-01	1.800000e+00
7.071675357408319e-10	4.119591e-01	1.800000e+00
7.271675357408319e-10	4.012257e-01	1.800000e+00
7.471675357408319e-10	3.905967e-01	1.800000e+00
7.871675357408320e-10	3.696977e-01	1.800000e+00
8.271675357408321e-10	3.493424e-01	1.800000e+00
8.671675357408322e-10	3.295917e-01	1.800000e+00
9.071675357408322e-10	3.104897e-01	1.800000e+00
9.471675357408323e-10	2.920683e-01	1.800000e+00
9.871675357408322e-10	2.743507e-01	1.800000e+00
1.047167535740832e-09	2.491284e-01	1.800000e+00
1.107167535740832e-09	2.255604e-01	1.800000e+00
1.167167535740832e-09	2.036592e-01	1.800000e+00
1.227167535740831e-09	1.834161e-01	1.800000e+00
1.287167535740831e-09	1.648020e-01	1.800000e+00
1.347167535740831e-09	1.477690e-01	1.800000e+00
1.407167535740831e-09	1.322531e-01	1.800000e+00
1.467167535740830e-09	1.181774e-01	1.800000e+00
1.527167535740830e-09	1.054555e-01	1.800000e+00
1.587167535740830e-09	9.399534e-02	1.800000e+00
1.647167535740830e-09	8.370219e-02	1.800000e+00
1.707167535740830e-09	7.448100e-02	1.800000e+00
1.767167535740829e-09	6.623871e-02	1.800000e+00
1.827167535740829e-09	5.888574e-02	1.800000e+00
1.887167535740829e-09	5.233712e-02	1.800000e+00
1.947167535740829e-09	4.651321e-02	1.800000e+00
2.007167535740829e-09	4.134006e-02	1.800000e+00
2.067167535740829e-09	3.674961e-02	1.800000e+00
2.127167535740828e-09	3.267962e-02	1.800000e+00
2.187167535740828e-09	2.907352e-02	1.800000e+00
2.247167535740828e-09	2.588013e-02	1.800000e+00
2.307167535740828e-09	2.305335e-02	1.800000e+00
2.367167535740828e-09	2.055180e-02	1.800000e+00
2.427167535740827e-09	1.833842e-02	1.800000e+00
2.487167535740827e-09	1.638017e-02	1.800000e+00
2.547167535740827e-09	1.464760e-02	1.800000e+00
2.607167535740827e-09	1.311452e-02	1.800000e+00
2.667167535740827e-09	1.175770e-02	1.800000e+00
2.727167535740826e-09	1.055654e-02	1.800000e+00
2.787167535740826e-09	9.492820e-03	1.800000e+00
2.847167535740826e-09	8.550404e-03	1.800000e+00
2.907167535740826e-09	7.715047e-03	1.800000e+00
2.967167535740826e-09	6.974167e-03	1.800000e+00
3.027167535740825e-09	6.316661e-03	1.800000e+00
3.087167535740825e-09	5.732736e-03	1.800000e+00
3.147167535740825e-09	5.213758e-03	1.800000e+00
3.207167535740825e-09	4.752114e-03	1.800000e+00
3.267167535740824e-09	4.341100e-03	1.800000e+00
3.327167535740824e-09	3.974805e-03	1.800000e+00
3.387167535740824e-09	3.648025e-03	1.800000e+00
3.438596107169395e-09	3.400790e-03	1.800000e+00
3.490024678597967e-09	3.171542e-03	1.800000e+00
3.541453250026538e-09	2.960283e-03	1.800000e+00
3.592881821455109e-09	2.767012e-03	1.800000e+00
3.644310392883681e-09	2.591729e-03	1.800000e+00
3.695738964312252e-09	2.434434e-03	1.800000e+00
3.747167535740823e-09	2.295127e-03	1.800000e+00
3.807167535740824e-09	2.146445e-03	1.800000e+00
3.867167535740825e-09	2.009081e-03	1.800000e+00
3.927167535740826e-09	1.883035e-03	1.800000e+00
3.987167535740827e-09	1.768307e-03	1.800000e+00
4.047167535740828e-09	1.664898e-03	1.800000e+00
4.107167535740829e-09	1.572806e-03	1.800000e+00
4.167167535740830e-09	1.492033e-03	1.800000e+00
4.241453250026546e-09	1.400982e-03	1.800000e+00
4.315738964312262e-09	1.317159e-03	1.800000e+00
4.390024678597978e-09	1.240562e-03	1.800000e+00
4.464310392883693e-09	1.171192e-03	1.800000e+00
4.538596107169408e-09	1.109050e-03	1.800000e+00
4.612881821455124e-09	1.054134e-03	1.800000e+00
4.687167535740839e-09	1.006445e-03	1.800000e+00
4.734715030635005e-09	9.771513e-04	1.800000e+00
4.782262525529171e-09	9.492600e-04	1.800000e+00
4.829810020423337e-09	9.227708e-04	1.800000e+00
4.877357515317503e-09	8.976838e-04	1.800000e+00
4.924905010211668e-09	8.739989e-04	1.800000e+00
4.972452505105834e-09	8.517161e-04	1.800000e+00
5.020000000000000e-09	8.308355e-04	1.800000e+00
5.040000000000001e-09	1.261851e-03	1.800000e+00
5.080000000000001e-09	1.367870e-03	1.800000e+00
5.120000000000002e-09	1.468538e-03	1.800000e+00
5.180000000000003e-09	1.611889e-03	1.800000e+00
5.240000000000004e-09	1.748262e-03	1.800000e+00
5.288571428571434e-09	1.854035e-03	1.800000e+00
5.337142857142863e-09	1.957581e-03	1.800000e+00
5.385714285714292e-09	2.058900e-03	1.800000e+00
5.434285714285722e-09	2.157991e-03	1.800000e+00
5.482857142857152e-09	2.254855e-03	1.800000e+00
5.531428571428580e-09	2.349492e-03	1.800000e+00
5.580000000000010e-09	2.441901e-03	1.800000e+00
5.825714285714300e-09	2.878036e-03	1.800000e+00
6.071428571428591e-09	3.289286e-03	1.800000e+00
6.317142857142880e-09	3.675651e-03	1.800000e+00
6.562857142857170e-09	4.037130e-03	1.800000e+00
6.808571428571460e-09	4.373724e-03	1.800000e+00
7.054285714285750e-09	4.685432e-03	1.800000e+00
7.300000000000040e-09	4.972255e-03	1.800000e+00
7.768571428571458e-09	5.477911e-03	1.800000e+00
8.237142857142876e-09	5.951550e-03	1.800000e+00
8.705714285714295e-09	6.393174e-03	1.800000e+00
9.174285714285714e-09	6.802781e-03	1.800000e+00
9.642857142857131e-09	7.180373e-03	1.800000e+00
1.011142857142855e-08	7.525948e-03	1.800000e+00
1.057999999999997e-08	7.839507e-03	1.800000e+00
1.159999999999994e-08	8.459734e-03	1.800000e+00
1.261999999999992e-08	9.035009e-03	1.800000e+00
1.363999999999989e-08	9.565334e-03	1.800000e+00
1.465999999999987e-08	1.005071e-02	1.800000e+00
1.567999999999985e-08	1.049113e-02	1.800000e+00
1.669999999999982e-08	1.088660e-02	1.800000e+00
1.771999999999979e-08	1.123712e-02	1.800000e+00
1.851999999999977e-08	1.150915e-02	1.800000e+00
2.000000000000000e-08	1.197760e-02	1.800000e+00
