time	V(y)	V(z)
0.000000000000000e+00	1.800000e+00	4.998462e-09
4.000000000000000e-20	1.692122e+00	5.450751e-09
7.657142857142861e-19	1.692233e+00	5.450264e-09
1.491428571428572e-18	1.692316e+00	5.449902e-09
2.217142857142858e-18	1.692370e+00	5.449665e-09
2.942857142857145e-18	1.692395e+00	5.449554e-09
3.668571428571431e-18	1.692392e+00	5.449568e-09
4.394285714285716e-18	1.692360e+00	5.449707e-09
5.120000000000000e-18	1.692300e+00	5.449972e-09
5.553520640000001e-12	1.692300e+00	5.449972e-09
5.556142080000000e-12	1.685230e+00	5.482289e-09
5.558108160000000e-12	1.643808e+00	5.681020e-09
5.560729600000000e-12	1.609292e+00	5.857644e-09
5.565972480000000e-12	1.574145e+00	6.049402e-09
5.576458240000000e-12	1.538215e+00	6.258747e-09
5.597429760000000e-12	1.502215e+00	6.483534e-09
5.639372800000000e-12	1.466306e+00	6.724457e-09
5.723258880000000e-12	1.430438e+00	6.983679e-09
5.891031040000000e-12	1.394575e+00	7.263639e-09
6.226575360000000e-12	1.358713e+00	7.566978e-09
6.897664000000001e-12	1.322844e+00	-8.194557e-09
8.239841280000002e-12	1.287260e+00	1.030288e-04
1.092419584000000e-11	1.250778e+00	1.615225e-03
1.629290496000000e-11	1.210415e+00	5.670934e-03
2.000000000000000e-11	1.189123e+00	8.975815e-03
2.741419007999999e-11	1.175791e+00	1.151267e-02
4.224257023999999e-11	1.152054e+00	1.700523e-02
6.224257024000000e-11	1.121295e+00	2.625524e-02
8.224257024000001e-11	1.090838e+00	3.825606e-02
1.022425702400000e-10	1.060729e+00	5.360449e-02
1.222425702400000e-10	1.030877e+00	7.325306e-02
1.422425702400000e-10	1.001347e+00	9.862577e-02
1.622425702400000e-10	9.721687e-01	1.322678e-01
1.822425702400000e-10	9.433694e-01	1.799473e-01
2.022425702400001e-10	9.149743e-01	2.601633e-01
2.047425702400000e-10	9.114574e-01	2.759414e-01
2.097425702400001e-10	9.044377e-01	3.201704e-01
2.109925702400001e-10	9.026878e-01	3.368683e-01
2.120863202400001e-10	9.011574e-01	3.581198e-01
2.124769452400001e-10	9.006111e-01	3.693384e-01
2.127503827400001e-10	9.002289e-01	3.810883e-01
2.129066327400001e-10	9.000104e-01	3.955618e-01
2.129077008552344e-10	9.000089e-01	3.954923e-01
2.129087689704688e-10	9.000075e-01	3.956507e-01
2.129098370857032e-10	9.000060e-01	3.960372e-01
2.129109052009376e-10	9.000045e-01	3.966517e-01
2.129119733161719e-10	9.000030e-01	3.974942e-01
2.129130414314063e-10	9.000015e-01	3.985647e-01
2.129141095466407e-10	9.000000e-01	3.998642e-01
2.129141095666407e-10	9.000000e-01	1.401543e+00
2.130099793780693e-10	8.998660e-01	1.411903e+00
2.131058491894979e-10	8.997320e-01	1.420550e+00
2.132017190009264e-10	8.995980e-01	1.427484e+00
2.132975888123550e-10	8.994640e-01	1.432704e+00
2.133934586237836e-10	8.993301e-01	1.436212e+00
2.134893284352122e-10	8.991961e-01	1.438006e+00
2.135851982466407e-10	8.990622e-01	1.438087e+00
2.155984641666407e-10	8.962519e-01	1.474270e+00
2.182828187266407e-10	8.925117e-01	1.502789e+00
2.236515278466407e-10	8.850557e-01	1.540851e+00
2.343889460866408e-10	8.702417e-01	1.588453e+00
2.543889460866407e-10	8.430076e-01	1.646560e+00
2.743889460866407e-10	8.162550e-01	1.682975e+00
2.943889460866407e-10	7.900014e-01	1.709647e+00
3.143889460866407e-10	7.642625e-01	1.730334e+00
3.343889460866407e-10	7.390521e-01	1.746538e+00
3.543889460866407e-10	7.143822e-01	1.759363e+00
3.743889460866406e-10	6.902634e-01	1.769564e+00
3.943889460866406e-10	6.667041e-01	1.777671e+00
4.143889460866406e-10	6.437114e-01	1.784076e+00
4.343889460866406e-10	6.212907e-01	1.789077e+00
4.543889460866406e-10	5.994456e-01	1.792908e+00
4.743889460866406e-10	5.781787e-01	1.795756e+00
4.943889460866406e-10	5.574906e-01	1.797772e+00
5.143889460866407e-10	5.373811e-01	1.799084e+00
5.343889460866407e-10	5.178482e-01	1.799796e+00
5.543889460866407e-10	4.988890e-01	1.800001e+00
6.086746603723552e-10	4.507946e-01	1.800000e+00
6.629603746580696e-10	4.062873e-01	1.800000e+00
7.172460889437840e-10	3.653672e-01	1.800000e+00
7.715318032294983e-10	3.280344e-01	1.800000e+00
8.258175175152128e-10	2.942887e-01	1.800000e+00
8.801032318009271e-10	2.641302e-01	1.800000e+00
9.343889460866414e-10	2.375589e-01	1.800000e+00
9.943889460866412e-10	2.108015e-01	1.800000e+00
1.054388946086641e-09	1.871189e-01	1.800000e+00
1.114388946086641e-09	1.662041e-01	1.800000e+00
1.174388946086641e-09	1.477674e-01	1.800000e+00
1.234388946086640e-09	1.315386e-01	1.800000e+00
1.294388946086640e-09	1.172690e-01	1.800000e+00
1.354388946086640e-09	1.047312e-01	1.800000e+00
1.414388946086640e-09	9.371985e-02	1.800000e+00
1.474388946086640e-09	8.404995e-02	1.800000e+00
1.534388946086639e-09	7.555637e-02	1.800000e+00
1.594388946086639e-09	6.809233e-02	1.800000e+00
1.654388946086639e-09	6.152801e-02	1.800000e+00
1.714388946086639e-09	5.574902e-02	1.800000e+00
1.762960374658067e-09	5.166627e-02	1.800000e+00
1.811531803229496e-09	4.789166e-02	1.800000e+00
1.860103231800924e-09	4.442518e-02	1.800000e+00
1.908674660372352e-09	4.126684e-02	1.800000e+00
1.957246088943781e-09	3.841664e-02	1.800000e+00
2.005817517515209e-09	3.587456e-02	1.800000e+00
2.054388946086638e-09	3.364062e-02	1.800000e+00
2.111531803229494e-09	3.124155e-02	1.800000e+00
2.168674660372351e-09	2.902953e-02	1.800000e+00
2.225817517515208e-09	2.700458e-02	1.800000e+00
2.282960374658065e-09	2.516670e-02	1.800000e+00
2.340103231800922e-09	2.351588e-02	1.800000e+00
2.397246088943779e-09	2.205212e-02	1.800000e+00
2.454388946086636e-09	2.077543e-02	1.800000e+00
2.522960374658064e-09	1.937418e-02	1.800000e+00
2.591531803229493e-09	1.808254e-02	1.800000e+00
2.660103231800921e-09	1.690052e-02	1.800000e+00
2.728674660372349e-09	1.582812e-02	1.800000e+00
2.797246088943778e-09	1.486532e-02	1.800000e+00
2.865817517515206e-09	1.401215e-02	1.800000e+00
2.934388946086634e-09	1.326859e-02	1.800000e+00
3.020103231800920e-09	1.241746e-02	1.800000e+00
3.105817517515205e-09	1.163280e-02	1.800000e+00
3.191531803229491e-09	1.091460e-02	1.800000e+00
3.277246088943776e-09	1.026288e-02	1.800000e+00
3.362960374658062e-09	9.677630e-03	1.800000e+00
3.448674660372347e-09	9.158847e-03	1.800000e+00
3.534388946086632e-09	8.706534e-03	1.800000e+00
3.648674660372348e-09	8.155504e-03	1.800000e+00
3.762960374658064e-09	7.648239e-03	1.800000e+00
3.877246088943779e-09	7.184740e-03	1.800000e+00
3.991531803229496e-09	6.765006e-03	1.800000e+00
4.105817517515211e-09	6.389038e-03	1.800000e+00
4.220103231800927e-09	6.056835e-03	1.800000e+00
4.334388946086642e-09	5.768398e-03	1.800000e+00
4.432333382359980e-09	5.533401e-03	1.800000e+00
4.530277818633316e-09	5.312040e-03	1.800000e+00
4.628222254906653e-09	5.104314e-03	1.800000e+00
4.726166691179990e-09	4.910224e-03	1.800000e+00
4.824111127453327e-09	4.729770e-03	1.800000e+00
4.922055563726664e-09	4.562952e-03	1.800000e+00
5.020000000000000e-09	4.409770e-03	1.800000e+00
5.022500000000001e-09	5.175643e-03	1.800000e+00
5.027500000000001e-09	7.989924e-03	1.800000e+00
5.028750000000000e-09	9.295636e-03	1.800000e+00
5.031250000000001e-09	1.401625e-02	1.800000e+00
5.031875000000001e-09	1.618407e-02	1.800000e+00
5.033125000000000e-09	2.455542e-02	1.800000e+00
5.033437500000001e-09	2.895931e-02	1.800000e+00
5.034062500000001e-09	6.298352e-02	1.800000e+00
5.034218750000001e-09	9.023248e-02	1.800000e+00
5.034257812500001e-09	1.000685e-01	1.800000e+00
5.034335937500001e-09	1.280964e-01	1.800000e+00
5.034355468750000e-09	1.383909e-01	1.800000e+00
5.034394531250001e-09	1.682592e-01	1.800000e+00
5.034472656250000e-09	4.128447e-01	1.800000e+00
5.034628906250001e-09	4.125566e-01	1.800014e+00
5.034941406250001e-09	4.128542e-01	1.800000e+00
5.040000000000001e-09	4.128637e-01	1.800000e+00
1.803021484374979e-08	4.128637e-01	1.800000e+00
2.000000000000000e-08	4.128637e-01	1.800000e+00
