time	V(y)	V(z)
0.000000000000000e+00	1.800000e+00	3.998704e-09
4.000000000000000e-20	1.692122e+00	4.360601e-09
7.657142857142861e-19	1.692233e+00	4.360211e-09
1.491428571428572e-18	1.692316e+00	4.359921e-09
2.217142857142858e-18	1.692370e+00	4.359732e-09
2.942857142857145e-18	1.692395e+00	4.359643e-09
3.668571428571431e-18	1.692392e+00	4.359654e-09
4.394285714285716e-18	1.692360e+00	4.359766e-09
5.120000000000000e-18	1.692300e+00	4.359978e-09
5.553520640000001e-12	1.692300e+00	4.359978e-09
5.556142080000000e-12	1.683462e+00	4.392295e-09
5.558108160000000e-12	1.638566e+00	4.565717e-09
5.560729600000000e-12	1.603268e+00	4.711638e-09
5.565972480000000e-12	1.568317e+00	4.865905e-09
5.576458240000000e-12	1.532465e+00	5.034885e-09
5.597429760000000e-12	1.496455e+00	5.216814e-09
5.639372800000000e-12	1.460534e+00	5.411890e-09
5.723258880000000e-12	1.424665e+00	5.621823e-09
5.891031040000000e-12	1.388803e+00	5.848646e-09
6.226575360000000e-12	1.352941e+00	6.094545e-09
6.897664000000001e-12	1.317033e+00	-8.696896e-09
8.239841280000002e-12	1.281904e+00	1.674690e-04
1.092419584000000e-11	1.245834e+00	1.575120e-03
1.629290496000000e-11	1.204280e+00	5.223135e-03
2.000000000000000e-11	1.181652e+00	8.267039e-03
2.741419007999999e-11	1.165761e+00	1.091633e-02
4.224257023999999e-11	1.137048e+00	1.689611e-02
6.224257024000000e-11	1.099592e+00	2.742071e-02
8.224257024000001e-11	1.062712e+00	4.155026e-02
1.022425702400000e-10	1.026525e+00	6.024973e-02
1.222425702400000e-10	9.910500e-01	8.509503e-02
1.422425702400000e-10	9.564050e-01	1.188771e-01
1.622425702400000e-10	9.227058e-01	1.681482e-01
1.822425702400000e-10	8.900802e-01	2.568402e-01
2.022425702400001e-10	8.586985e-01	1.543125e+00
2.222425702400001e-10	8.287732e-01	1.624186e+00
2.422425702400000e-10	8.005624e-01	1.670047e+00
2.622425702400000e-10	7.742962e-01	1.701592e+00
2.822425702400000e-10	7.500468e-01	1.723782e+00
3.022425702400000e-10	7.277570e-01	1.740280e+00
3.222425702400000e-10	7.072359e-01	1.752872e+00
3.422425702400000e-10	6.882318e-01	1.762680e+00
3.622425702399999e-10	6.704675e-01	1.770466e+00
3.822425702399999e-10	6.536799e-01	1.776748e+00
4.022425702399999e-10	6.376310e-01	1.781881e+00
4.222425702399999e-10	6.221382e-01	1.786105e+00
4.422425702399999e-10	6.070851e-01	1.789579e+00
4.622425702399999e-10	5.924108e-01	1.792417e+00
4.822425702399999e-10	5.780897e-01	1.794702e+00
5.022425702399999e-10	5.641114e-01	1.796501e+00
5.222425702400000e-10	5.504668e-01	1.797874e+00
5.422425702400000e-10	5.371420e-01	1.798869e+00
5.622425702400000e-10	5.241168e-01	1.799532e+00
5.822425702400001e-10	5.113669e-01	1.799898e+00
6.022425702400001e-10	4.988675e-01	1.800000e+00
6.222425702400001e-10	4.865954e-01	1.800000e+00
6.422425702400002e-10	4.745309e-01	1.800000e+00
6.622425702400002e-10	4.626586e-01	1.800000e+00
6.822425702400002e-10	4.509668e-01	1.800000e+00
7.022425702400003e-10	4.394476e-01	1.800000e+00
7.222425702400003e-10	4.280958e-01	1.800000e+00
7.422425702400003e-10	4.169082e-01	1.800000e+00
7.622425702400004e-10	4.058834e-01	1.800000e+00
7.822425702400004e-10	3.950208e-01	1.800000e+00
8.022425702400004e-10	3.843207e-01	1.800000e+00
8.422425702400005e-10	3.634112e-01	1.800000e+00
8.822425702400006e-10	3.431637e-01	1.800000e+00
9.222425702400006e-10	3.235896e-01	1.800000e+00
9.622425702400005e-10	3.047009e-01	1.800000e+00
1.002242570240000e-09	2.865098e-01	1.800000e+00
1.062242570240000e-09	2.605556e-01	1.800000e+00
1.122242570240000e-09	2.362277e-01	1.800000e+00
1.182242570240000e-09	2.135448e-01	1.800000e+00
1.242242570240000e-09	1.925087e-01	1.800000e+00
1.302242570239999e-09	1.731019e-01	1.800000e+00
1.362242570239999e-09	1.552880e-01	1.800000e+00
1.422242570239999e-09	1.390129e-01	1.800000e+00
1.482242570239999e-09	1.242081e-01	1.800000e+00
1.542242570239999e-09	1.107937e-01	1.800000e+00
1.602242570239998e-09	9.868221e-02	1.800000e+00
1.662242570239998e-09	8.778170e-02	1.800000e+00
1.722242570239998e-09	7.799856e-02	1.800000e+00
1.782242570239998e-09	6.923997e-02	1.800000e+00
1.842242570239997e-09	6.141561e-02	1.800000e+00
1.902242570239997e-09	5.443908e-02	1.800000e+00
1.962242570239997e-09	4.822879e-02	1.800000e+00
2.022242570239997e-09	4.270849e-02	1.800000e+00
2.082242570239997e-09	3.780762e-02	1.800000e+00
2.142242570239996e-09	3.346132e-02	1.800000e+00
2.202242570239996e-09	2.961037e-02	1.800000e+00
2.262242570239996e-09	2.620099e-02	1.800000e+00
2.322242570239996e-09	2.318457e-02	1.800000e+00
2.382242570239996e-09	2.051730e-02	1.800000e+00
2.442242570239995e-09	1.815988e-02	1.800000e+00
2.502242570239995e-09	1.607710e-02	1.800000e+00
2.562242570239995e-09	1.423753e-02	1.800000e+00
2.622242570239995e-09	1.261316e-02	1.800000e+00
2.682242570239995e-09	1.117907e-02	1.800000e+00
2.742242570239994e-09	9.913109e-03	1.800000e+00
2.802242570239994e-09	8.795650e-03	1.800000e+00
2.862242570239994e-09	7.809286e-03	1.800000e+00
2.922242570239994e-09	6.938611e-03	1.800000e+00
2.982242570239994e-09	6.169998e-03	1.800000e+00
3.042242570239993e-09	5.491406e-03	1.800000e+00
3.102242570239993e-09	4.892195e-03	1.800000e+00
3.162242570239993e-09	4.362977e-03	1.800000e+00
3.222242570239993e-09	3.895463e-03	1.800000e+00
3.282242570239992e-09	3.482346e-03	1.800000e+00
3.342242570239992e-09	3.117181e-03	1.800000e+00
3.402242570239992e-09	2.794288e-03	1.800000e+00
3.462242570239992e-09	2.508659e-03	1.800000e+00
3.522242570239992e-09	2.255883e-03	1.800000e+00
3.573671141668563e-09	2.066560e-03	1.800000e+00
3.625099713097135e-09	1.892018e-03	1.800000e+00
3.676528284525707e-09	1.732256e-03	1.800000e+00
3.727956855954278e-09	1.587274e-03	1.800000e+00
3.779385427382850e-09	1.457072e-03	1.800000e+00
3.830813998811422e-09	1.341650e-03	1.800000e+00
3.882242570239994e-09	1.241008e-03	1.800000e+00
3.942242570239995e-09	1.134728e-03	1.800000e+00
4.002242570239996e-09	1.037445e-03	1.800000e+00
4.062242570239997e-09	9.491584e-04	1.800000e+00
4.122242570239998e-09	8.698689e-04	1.800000e+00
4.182242570239999e-09	7.995761e-04	1.800000e+00
4.242242570240000e-09	7.382801e-04	1.800000e+00
4.302242570240001e-09	6.859810e-04	1.800000e+00
4.376528284525717e-09	6.280104e-04	1.800000e+00
4.450813998811432e-09	5.754034e-04	1.800000e+00
4.525099713097148e-09	5.281599e-04	1.800000e+00
4.599385427382864e-09	4.862799e-04	1.800000e+00
4.673671141668579e-09	4.497635e-04	1.800000e+00
4.747956855954294e-09	4.186106e-04	1.800000e+00
4.822242570240010e-09	3.928212e-04	1.800000e+00
4.850493631634294e-09	3.832145e-04	1.800000e+00
4.878744693028579e-09	3.739838e-04	1.800000e+00
4.906995754422863e-09	3.651291e-04	1.800000e+00
4.935246815817148e-09	3.566504e-04	1.800000e+00
4.963497877211432e-09	3.485478e-04	1.800000e+00
4.991748938605716e-09	3.408211e-04	1.800000e+00
5.020000000000000e-09	3.334705e-04	1.800000e+00
5.040000000000001e-09	4.523044e-04	1.800000e+00
5.060000000000001e-09	4.718015e-04	1.800000e+00
5.080000000000001e-09	4.903484e-04	1.800000e+00
5.120000000000002e-09	5.240655e-04	1.800000e+00
5.180000000000003e-09	5.694454e-04	1.800000e+00
5.228571428571433e-09	6.029499e-04	1.800000e+00
5.277142857142862e-09	6.355803e-04	1.800000e+00
5.325714285714291e-09	6.673366e-04	1.800000e+00
5.374285714285721e-09	6.982188e-04	1.800000e+00
5.422857142857151e-09	7.282269e-04	1.800000e+00
5.471428571428579e-09	7.573610e-04	1.800000e+00
5.520000000000009e-09	7.856210e-04	1.800000e+00
5.845714285714299e-09	9.602317e-04	1.800000e+00
6.171428571428587e-09	1.123490e-03	1.800000e+00
6.497142857142877e-09	1.275396e-03	1.800000e+00
6.822857142857166e-09	1.415949e-03	1.800000e+00
7.148571428571456e-09	1.545151e-03	1.800000e+00
7.474285714285745e-09	1.663000e-03	1.800000e+00
7.800000000000033e-09	1.769496e-03	1.800000e+00
8.534285714285731e-09	1.986715e-03	1.800000e+00
9.268571428571428e-09	2.187682e-03	1.800000e+00
1.000285714285712e-08	2.372397e-03	1.800000e+00
1.073714285714282e-08	2.540861e-03	1.800000e+00
1.147142857142852e-08	2.693073e-03	1.800000e+00
1.220571428571421e-08	2.829033e-03	1.800000e+00
1.293999999999991e-08	2.948742e-03	1.800000e+00
1.387142857142846e-08	3.093870e-03	1.800000e+00
1.480285714285701e-08	3.230678e-03	1.800000e+00
1.573428571428556e-08	3.359166e-03	1.800000e+00
1.666571428571411e-08	3.479332e-03	1.800000e+00
1.759714285714266e-08	3.591179e-03	1.800000e+00
1.852857142857120e-08	3.694705e-03	1.800000e+00
1.945999999999975e-08	3.789910e-03	1.800000e+00
2.000000000000000e-08	-nan	-nan
