time	V(y)	V(z)
0.000000000000000e+00	1.800000e+00	3.998704e-09
4.000000000000000e-20	1.692122e+00	4.360601e-09
7.657142857142861e-19	1.692233e+00	4.360211e-09
1.491428571428572e-18	1.692316e+00	4.359921e-09
2.217142857142858e-18	1.692370e+00	4.359732e-09
2.942857142857145e-18	1.692395e+00	4.359643e-09
3.668571428571431e-18	1.692392e+00	4.359654e-09
4.394285714285716e-18	1.692360e+00	4.359766e-09
5.120000000000000e-18	1.692300e+00	4.359978e-09
5.553520640000001e-12	1.692300e+00	4.359978e-09
5.556142080000000e-12	1.683462e+00	4.392295e-09
5.558108160000000e-12	1.638566e+00	4.565717e-09
5.560729600000000e-12	1.603268e+00	4.711638e-09
5.565972480000000e-12	1.568317e+00	4.865905e-09
5.576458240000000e-12	1.532465e+00	5.034885e-09
5.597429760000000e-12	1.496455e+00	5.216814e-09
5.639372800000000e-12	1.460534e+00	5.411890e-09
5.723258880000000e-12	1.424665e+00	5.621823e-09
5.891031040000000e-12	1.388803e+00	5.848646e-09
6.226575360000000e-12	1.352941e+00	6.094545e-09
6.897664000000001e-12	1.317033e+00	-8.696988e-09
8.239841280000002e-12	1.281904e+00	1.674773e-04
1.092419584000000e-11	1.245826e+00	1.575632e-03
1.629290496000000e-11	1.204246e+00	5.227085e-03
2.000000000000000e-11	1.181621e+00	8.271709e-03
2.741419007999999e-11	1.165750e+00	1.091832e-02
4.224257023999999e-11	1.137056e+00	1.689427e-02
6.224257024000000e-11	1.099626e+00	2.740942e-02
8.224257024000001e-11	1.062802e+00	4.151064e-02
1.022425702400000e-10	1.026719e+00	6.013452e-02
1.222425702400000e-10	9.914368e-01	8.478177e-02
1.422425702400000e-10	9.571337e-01	1.180416e-01
1.622425702400000e-10	9.240136e-01	1.657599e-01
1.822425702400000e-10	8.922755e-01	2.477158e-01
1.847425702400000e-10	8.884225e-01	2.643479e-01
1.897425702400000e-10	8.807756e-01	3.144909e-01
1.909925702400000e-10	8.788819e-01	3.378889e-01
1.913831952400000e-10	8.782910e-01	3.494191e-01
1.915785077400000e-10	8.779956e-01	3.577316e-01
1.917152264900000e-10	8.777890e-01	3.670631e-01
1.917227795905860e-10	8.777776e-01	3.672850e-01
1.917303326911719e-10	8.777661e-01	3.679081e-01
1.917378857917579e-10	8.777547e-01	3.689322e-01
1.917454388923438e-10	8.777433e-01	3.703574e-01
1.917529919929298e-10	8.777319e-01	3.721837e-01
1.917605450935157e-10	8.777205e-01	3.744111e-01
1.917680981941016e-10	8.777091e-01	3.770396e-01
1.917683008498939e-10	8.777088e-01	3.776146e-01
1.917683056182654e-10	8.777088e-01	5.123955e-01
1.917683091945441e-10	8.777087e-01	1.183644e+00
1.917683139629157e-10	8.777087e-01	1.380448e+00
1.918576014440534e-10	8.775738e-01	1.390724e+00
1.919468889251911e-10	8.774390e-01	1.399371e+00
1.920361764063288e-10	8.773042e-01	1.406387e+00
1.921254638874664e-10	8.771694e-01	1.411774e+00
1.922147513686041e-10	8.770346e-01	1.415530e+00
1.923040388497418e-10	8.768999e-01	1.417656e+00
1.923933263308795e-10	8.767653e-01	1.418152e+00
1.942683263308795e-10	8.739444e-01	1.456600e+00
1.967683263308795e-10	8.702061e-01	1.486874e+00
2.017683263308795e-10	8.628087e-01	1.527163e+00
2.117683263308795e-10	8.483274e-01	1.577121e+00
2.317683263308795e-10	8.203869e-01	1.639328e+00
2.517683263308795e-10	7.935489e-01	1.679936e+00
2.717683263308794e-10	7.675563e-01	1.708223e+00
2.917683263308794e-10	7.422856e-01	1.729853e+00
3.117683263308794e-10	7.177315e-01	1.746701e+00
3.317683263308794e-10	6.939865e-01	1.759879e+00
3.517683263308794e-10	6.712044e-01	1.770170e+00
3.717683263308794e-10	6.495815e-01	1.778142e+00
3.917683263308793e-10	6.292766e-01	1.784250e+00
4.117683263308793e-10	6.103697e-01	1.788877e+00
4.317683263308793e-10	5.928563e-01	1.792343e+00
4.517683263308793e-10	5.766603e-01	1.794908e+00
4.717683263308793e-10	5.616517e-01	1.796778e+00
4.917683263308794e-10	5.476635e-01	1.798112e+00
5.117683263308794e-10	5.345087e-01	1.799028e+00
5.317683263308794e-10	5.220001e-01	1.799612e+00
5.517683263308795e-10	5.099678e-01	1.799921e+00
5.717683263308795e-10	4.982705e-01	1.800000e+00
5.917683263308795e-10	4.868028e-01	1.800000e+00
6.117683263308796e-10	4.754911e-01	1.800000e+00
6.317683263308796e-10	4.642896e-01	1.800000e+00
6.517683263308796e-10	4.531731e-01	1.800000e+00
6.717683263308797e-10	4.421314e-01	1.800000e+00
6.917683263308797e-10	4.311639e-01	1.800000e+00
7.117683263308797e-10	4.202759e-01	1.800000e+00
7.317683263308798e-10	4.094764e-01	1.800000e+00
7.517683263308798e-10	3.987756e-01	1.800000e+00
7.717683263308798e-10	3.881840e-01	1.800000e+00
8.117683263308799e-10	3.673688e-01	1.800000e+00
8.517683263308800e-10	3.471021e-01	1.800000e+00
8.917683263308800e-10	3.274396e-01	1.800000e+00
9.317683263308801e-10	3.084228e-01	1.800000e+00
9.717683263308800e-10	2.900825e-01	1.800000e+00
1.011768326330880e-09	2.724412e-01	1.800000e+00
1.071768326330880e-09	2.473250e-01	1.800000e+00
1.131768326330879e-09	2.238535e-01	1.800000e+00
1.177482612045165e-09	2.071313e-01	1.800000e+00
1.223196897759451e-09	1.913276e-01	1.800000e+00
1.268911183473736e-09	1.764423e-01	1.800000e+00
1.314625469188022e-09	1.624755e-01	1.800000e+00
1.360339754902307e-09	1.494272e-01	1.800000e+00
1.406054040616593e-09	1.372973e-01	1.800000e+00
1.451768326330878e-09	1.260858e-01	1.800000e+00
1.511768326330878e-09	1.125245e-01	1.800000e+00
1.571768326330878e-09	1.002820e-01	1.800000e+00
1.631768326330878e-09	8.926522e-02	1.800000e+00
1.691768326330877e-09	7.937963e-02	1.800000e+00
1.751768326330877e-09	7.053109e-02	1.800000e+00
1.811768326330877e-09	6.262804e-02	1.800000e+00
1.871768326330877e-09	5.558275e-02	1.800000e+00
1.931768326330877e-09	4.931240e-02	1.800000e+00
1.991768326330876e-09	4.373956e-02	1.800000e+00
2.051768326330876e-09	3.879258e-02	1.800000e+00
2.111768326330876e-09	3.440565e-02	1.800000e+00
2.171768326330876e-09	3.051868e-02	1.800000e+00
2.231768326330876e-09	2.707713e-02	1.800000e+00
2.291768326330875e-09	2.403172e-02	1.800000e+00
2.351768326330875e-09	2.133811e-02	1.800000e+00
2.411768326330875e-09	1.895650e-02	1.800000e+00
2.471768326330875e-09	1.685130e-02	1.800000e+00
2.531768326330875e-09	1.499074e-02	1.800000e+00
2.591768326330874e-09	1.334655e-02	1.800000e+00
2.651768326330874e-09	1.189359e-02	1.800000e+00
2.711768326330874e-09	1.060953e-02	1.800000e+00
2.771768326330874e-09	9.474605e-03	1.800000e+00
2.831768326330874e-09	8.471305e-03	1.800000e+00
2.891768326330873e-09	7.584141e-03	1.800000e+00
2.951768326330873e-09	6.799427e-03	1.800000e+00
3.011768326330873e-09	6.105077e-03	1.800000e+00
3.071768326330873e-09	5.490424e-03	1.800000e+00
3.131768326330873e-09	4.946056e-03	1.800000e+00
3.191768326330872e-09	4.463676e-03	1.800000e+00
3.251768326330872e-09	4.035970e-03	1.800000e+00
3.311768326330872e-09	3.656493e-03	1.800000e+00
3.371768326330872e-09	3.319566e-03	1.800000e+00
3.431768326330871e-09	3.020187e-03	1.800000e+00
3.483196897759443e-09	2.794813e-03	1.800000e+00
3.534625469188014e-09	2.586419e-03	1.800000e+00
3.586054040616586e-09	2.395006e-03	1.800000e+00
3.637482612045157e-09	2.220573e-03	1.800000e+00
3.688911183473729e-09	2.063119e-03	1.800000e+00
3.740339754902301e-09	1.922646e-03	1.800000e+00
3.791768326330872e-09	1.799154e-03	1.800000e+00
3.848911183473730e-09	1.673665e-03	1.800000e+00
3.906054040616588e-09	1.557877e-03	1.800000e+00
3.963196897759446e-09	1.451789e-03	1.800000e+00
4.020339754902305e-09	1.355403e-03	1.800000e+00
4.077482612045162e-09	1.268717e-03	1.800000e+00
4.134625469188021e-09	1.191732e-03	1.800000e+00
4.191768326330879e-09	1.124447e-03	1.800000e+00
4.266054040616594e-09	1.045599e-03	1.800000e+00
4.340339754902310e-09	9.734855e-04	1.800000e+00
4.414625469188026e-09	9.081050e-04	1.800000e+00
4.488911183473742e-09	8.494581e-04	1.800000e+00
4.563196897759456e-09	7.975448e-04	1.800000e+00
4.637482612045172e-09	7.523651e-04	1.800000e+00
4.711768326330888e-09	7.139189e-04	1.800000e+00
4.755801422569333e-09	6.919934e-04	1.800000e+00
4.799834518807777e-09	6.711577e-04	1.800000e+00
4.843867615046222e-09	6.514119e-04	1.800000e+00
4.887900711284666e-09	6.327559e-04	1.800000e+00
4.931933807523111e-09	6.151897e-04	1.800000e+00
4.975966903761556e-09	5.987134e-04	1.800000e+00
5.020000000000000e-09	5.833269e-04	1.800000e+00
5.040000000000001e-09	8.013171e-04	1.800000e+00
5.060000000000001e-09	8.559956e-04	1.800000e+00
5.080000000000001e-09	8.991550e-04	1.800000e+00
5.100000000000002e-09	9.364957e-04	1.800000e+00
5.120000000000002e-09	9.705744e-04	1.800000e+00
5.160000000000003e-09	1.033590e-03	1.800000e+00
5.200000000000004e-09	1.092224e-03	1.800000e+00
5.240000000000004e-09	1.149520e-03	1.800000e+00
5.280000000000005e-09	1.205480e-03	1.800000e+00
5.320000000000006e-09	1.260104e-03	1.800000e+00
5.360000000000006e-09	1.313390e-03	1.800000e+00
5.400000000000007e-09	1.365340e-03	1.800000e+00
5.440000000000008e-09	1.415953e-03	1.800000e+00
5.614285714285725e-09	1.626222e-03	1.800000e+00
5.788571428571442e-09	1.826945e-03	1.800000e+00
5.962857142857160e-09	2.018121e-03	1.800000e+00
6.137142857142877e-09	2.199752e-03	1.800000e+00
6.311428571428595e-09	2.371837e-03	1.800000e+00
6.485714285714312e-09	2.534376e-03	1.800000e+00
6.660000000000029e-09	2.687369e-03	1.800000e+00
7.054285714285738e-09	3.007165e-03	1.800000e+00
7.448571428571448e-09	3.307407e-03	1.800000e+00
7.842857142857158e-09	3.588095e-03	1.800000e+00
8.237142857142866e-09	3.849229e-03	1.800000e+00
8.631428571428577e-09	4.090810e-03	1.800000e+00
9.025714285714286e-09	4.312836e-03	1.800000e+00
9.419999999999994e-09	4.515309e-03	1.800000e+00
1.023714285714283e-08	4.899128e-03	1.800000e+00
1.105428571428567e-08	5.256413e-03	1.800000e+00
1.187142857142851e-08	5.587162e-03	1.800000e+00
1.268857142857135e-08	5.891376e-03	1.800000e+00
1.350571428571418e-08	6.169055e-03	1.800000e+00
1.432285714285702e-08	6.420200e-03	1.800000e+00
1.513999999999986e-08	6.644810e-03	1.800000e+00
1.833999999999978e-08	7.436162e-03	1.800000e+00
2.000000000000000e-08	7.784826e-03	1.800000e+00
